T11ED0 000:005.356   SEGGER J-Link V7.88j Log File
T11ED0 000:005.456   DLL Compiled: Jun 28 2023 13:33:44
T11ED0 000:005.460   Logging started @ 2025-07-20 07:51
T11ED0 000:005.464 - 5.466ms
T11ED0 000:005.472 JLINK_SetWarnOutHandler(...)
T11ED0 000:005.477 - 0.006ms
T11ED0 000:005.481 JLINK_OpenEx(...)
T11ED0 000:011.409   Firmware: J-Link OB-SAM3U128-V2-NordicSemi compiled Sep 21 2022 09:57:39
T11ED0 000:011.995   Firmware: J-Link OB-SAM3U128-V2-NordicSemi compiled Sep 21 2022 09:57:39
T11ED0 000:030.973   Hardware: V1.00
T11ED0 000:031.014   S/N: 683843766
T11ED0 000:031.021   OEM: SEGGER
T11ED0 000:031.027   Feature(s): RDI, FlashBP, FlashDL, JFlash, GDB
T11ED0 000:032.158   Bootloader: (Could not read)
T11ED0 000:047.266   USB speed mode: High speed (480 MBit/s)
T11ED0 000:047.892   TELNET listener socket opened on port 19021
T11ED0 000:048.036   WEBSRV WEBSRV_Init(): Starting webserver thread(s)
T11ED0 000:048.158   WEBSRV Failed to put socket into listener state (port 19080)
T11ED0 000:048.285   WEBSRV Webserver running on local port 19081
T11ED0 000:048.385   Looking for J-Link GUI Server exe at: C:\Keil_V5\ARM\Segger\JLinkGUIServer.exe
T11ED0 000:048.463   Looking for J-Link GUI Server exe at: C:\Program Files\SEGGER\JLink\JLinkGUIServer.exe
T11ED0 000:048.485   Forking J-Link GUI Server: C:\Program Files\SEGGER\JLink\JLinkGUIServer.exe
T11ED0 000:154.698   J-Link GUI Server info: "J-Link GUI server V7.88j "
T11ED0 000:156.939 - 151.505ms returns "O.K."
T11ED0 000:157.050 JLINK_GetEmuCaps()
T11ED0 000:157.056 - 0.007ms returns 0xB8EA5A33
T11ED0 000:157.067 JLINK_TIF_GetAvailable(...)
T11ED0 000:157.386 - 0.326ms
T11ED0 000:157.441 JLINK_SetErrorOutHandler(...)
T11ED0 000:157.445 - 0.006ms
T11ED0 000:157.462 JLINK_ExecCommand("ProjectFile = "C:\nrf52840\my_demo\examples\ble_peripheral\JLinkSettings.ini"", ...). 
T11ED0 000:165.673   Ref file found at: C:\Keil_V5\ARM\Segger\JLinkDevices.ref
T11ED0 000:165.756   REF file references invalid XML file: D:\JLink\JLinkDevices.xml
T11ED0 000:165.860 - 8.400ms returns 0x00
T11ED0 000:168.350 JLINK_ExecCommand("Device = nRF52840_xxAA", ...). 
T11ED0 000:170.936   Device "NRF52840_XXAA" selected.
T11ED0 000:171.134 - 2.774ms returns 0x00
T11ED0 000:171.144 JLINK_ExecCommand("DisableConnectionTimeout", ...). 
T11ED0 000:171.150 - 0.002ms returns 0x01
T11ED0 000:171.155 JLINK_GetHardwareVersion()
T11ED0 000:171.158 - 0.005ms returns 10000
T11ED0 000:171.172 JLINK_GetDLLVersion()
T11ED0 000:171.175 - 0.005ms returns 78810
T11ED0 000:171.180 JLINK_GetOEMString(...)
T11ED0 000:171.184 JLINK_GetFirmwareString(...)
T11ED0 000:171.188 - 0.005ms
T11ED0 000:176.922 JLINK_GetDLLVersion()
T11ED0 000:176.933 - 0.012ms returns 78810
T11ED0 000:176.941 JLINK_GetCompileDateTime()
T11ED0 000:176.945 - 0.005ms
T11ED0 000:178.931 JLINK_GetFirmwareString(...)
T11ED0 000:178.944 - 0.014ms
T11ED0 000:182.002 JLINK_GetHardwareVersion()
T11ED0 000:182.014 - 0.013ms returns 10000
T11ED0 000:183.900 JLINK_GetSN()
T11ED0 000:183.910 - 0.012ms returns 683843766
T11ED0 000:186.021 JLINK_GetOEMString(...)
T11ED0 000:189.927 JLINK_TIF_Select(JLINKARM_TIF_SWD)
T11ED0 000:208.739 - 18.824ms returns 0x00
T11ED0 000:208.784 JLINK_HasError()
T11ED0 000:208.809 JLINK_SetSpeed(5000)
T11ED0 000:209.067 - 0.260ms
T11ED0 000:209.090 JLINK_GetId()
T11ED0 000:211.439   InitTarget() start
T11ED0 000:211.459    J-Link Script File: Executing InitTarget()
T11ED0 000:217.529   InitTarget() end - Took 4.14ms
T11ED0 000:220.731   Found SW-DP with ID 0x2BA01477
T11ED0 000:225.942   DPIDR: 0x2BA01477
T11ED0 000:227.907   CoreSight SoC-400 or earlier
T11ED0 000:229.800   Scanning AP map to find all available APs
T11ED0 000:233.243   AP[2]: Stopped AP scan as end of AP map has been reached
T11ED0 000:235.159   AP[0]: AHB-AP (IDR: 0x24770011)
T11ED0 000:237.206   AP[1]: JTAG-AP (IDR: 0x02880000)
T11ED0 000:239.235   Iterating through AP map to find AHB-AP to use
T11ED0 000:243.290   AP[0]: Core found
T11ED0 000:245.321   AP[0]: AHB-AP ROM base: 0xE00FF000
T11ED0 000:248.247   CPUID register: 0x410FC241. Implementer code: 0x41 (ARM)
T11ED0 000:250.206   Found Cortex-M4 r0p1, Little endian.
T11ED0 000:251.448   -- Max. mem block: 0x00001690
T11ED0 000:252.765   CPU_ReadMem(4 bytes @ 0xE000EDF0)
T11ED0 000:253.498   CPU_ReadMem(4 bytes @ 0xE0002000)
T11ED0 000:256.187   FPUnit: 6 code (BP) slots and 2 literal slots
T11ED0 000:256.202   CPU_ReadMem(4 bytes @ 0xE000EDFC)
T11ED0 000:257.009   CPU_ReadMem(4 bytes @ 0xE0001000)
T11ED0 000:257.788   CPU_WriteMem(4 bytes @ 0xE0001000)
T11ED0 000:258.431   CPU_ReadMem(4 bytes @ 0xE000ED88)
T11ED0 000:259.202   CPU_WriteMem(4 bytes @ 0xE000ED88)
T11ED0 000:260.035   CPU_ReadMem(4 bytes @ 0xE000ED88)
T11ED0 000:260.814   CPU_WriteMem(4 bytes @ 0xE000ED88)
T11ED0 000:263.917   CoreSight components:
T11ED0 000:265.978   ROMTbl[0] @ E00FF000
T11ED0 000:265.992   CPU_ReadMem(64 bytes @ 0xE00FF000)
T11ED0 000:267.643   CPU_ReadMem(32 bytes @ 0xE000EFE0)
T11ED0 000:270.790   [0][0]: E000E000 CID B105E00D PID 000BB00C SCS-M7
T11ED0 000:270.805   CPU_ReadMem(32 bytes @ 0xE0001FE0)
T11ED0 000:273.927   [0][1]: E0001000 CID B105E00D PID 003BB002 DWT
T11ED0 000:273.943   CPU_ReadMem(32 bytes @ 0xE0002FE0)
T11ED0 000:277.050   [0][2]: E0002000 CID B105E00D PID 002BB003 FPB
T11ED0 000:277.064   CPU_ReadMem(32 bytes @ 0xE0000FE0)
T11ED0 000:280.112   [0][3]: E0000000 CID B105E00D PID 003BB001 ITM
T11ED0 000:280.128   CPU_ReadMem(32 bytes @ 0xE0040FE0)
T11ED0 000:283.856   [0][4]: E0040000 CID B105900D PID 000BB9A1 TPIU
T11ED0 000:283.872   CPU_ReadMem(32 bytes @ 0xE0041FE0)
T11ED0 000:287.233   [0][5]: E0041000 CID B105900D PID 000BB925 ETM
T11ED0 000:287.768 - 78.698ms returns 0x2BA01477
T11ED0 000:287.821 JLINK_GetDLLVersion()
T11ED0 000:287.825 - 0.005ms returns 78810
T11ED0 000:287.830 JLINK_CORE_GetFound()
T11ED0 000:287.833 - 0.005ms returns 0xE0000FF
T11ED0 000:287.852 JLINK_GetDebugInfo(0x100 = JLINKARM_ROM_TABLE_ADDR_INDEX)
T11ED0 000:287.856   Value=0xE00FF000
T11ED0 000:287.861 - 0.011ms returns 0
T11ED0 000:289.913 JLINK_GetDebugInfo(0x100 = JLINKARM_ROM_TABLE_ADDR_INDEX)
T11ED0 000:289.926   Value=0xE00FF000
T11ED0 000:289.931 - 0.020ms returns 0
T11ED0 000:289.936 JLINK_GetDebugInfo(0x101 = JLINKARM_DEBUG_INFO_ETM_ADDR_INDEX)
T11ED0 000:289.940   Value=0xE0041000
T11ED0 000:289.945 - 0.010ms returns 0
T11ED0 000:289.951 JLINK_ReadMemEx(0xE0041FD0, 0x20 Bytes, Flags = 0x02000004)
T11ED0 000:289.977   CPU_ReadMem(32 bytes @ 0xE0041FD0)
T11ED0 000:338.685   Data:  04 00 00 00 00 00 00 00 00 00 00 00 00 00 00 00 ...
T11ED0 000:338.724 - 48.777ms returns 32 (0x20)
T11ED0 000:338.845 JLINK_GetDebugInfo(0x102 = JLINKARM_DEBUG_INFO_MTB_ADDR_INDEX)
T11ED0 000:338.857   Value=0x00000000
T11ED0 000:338.867 - 0.025ms returns 0
T11ED0 000:338.886 JLINK_GetDebugInfo(0x103 = JLINKARM_DEBUG_INFO_TPIU_ADDR_INDEX)
T11ED0 000:338.893   Value=0xE0040000
T11ED0 000:338.903 - 0.020ms returns 0
T11ED0 000:338.912 JLINK_GetDebugInfo(0x104 = JLINKARM_DEBUG_INFO_ITM_ADDR_INDEX)
T11ED0 000:338.919   Value=0xE0000000
T11ED0 000:338.928 - 0.019ms returns 0
T11ED0 000:338.936 JLINK_GetDebugInfo(0x105 = JLINKARM_DEBUG_INFO_DWT_ADDR_INDEX)
T11ED0 000:338.943   Value=0xE0001000
T11ED0 000:338.953 - 0.019ms returns 0
T11ED0 000:338.962 JLINK_GetDebugInfo(0x106 = JLINKARM_DEBUG_INFO_FPB_ADDR_INDEX)
T11ED0 000:338.969   Value=0xE0002000
T11ED0 000:338.978 - 0.019ms returns 0
T11ED0 000:338.987 JLINK_GetDebugInfo(0x107 = JLINKARM_DEBUG_INFO_NVIC_ADDR_INDEX)
T11ED0 000:338.994   Value=0xE000E000
T11ED0 000:339.003 - 0.019ms returns 0
T11ED0 000:339.011 JLINK_GetDebugInfo(0x10C = JLINKARM_DEBUG_INFO_DBG_ADDR_INDEX)
T11ED0 000:339.018   Value=0xE000EDF0
T11ED0 000:339.028 - 0.020ms returns 0
T11ED0 000:339.037 JLINK_GetDebugInfo(0x01 = Unknown)
T11ED0 000:339.056   Value=0x00000001
T11ED0 000:339.066 - 0.032ms returns 0
T11ED0 000:339.074 JLINK_ReadMemU32(0xE000ED00, 0x1 Items)
T11ED0 000:339.097   CPU_ReadMem(4 bytes @ 0xE000ED00)
T11ED0 000:340.031   Data:  41 C2 0F 41
T11ED0 000:340.061   Debug reg: CPUID
T11ED0 000:340.071 - 1.001ms returns 1 (0x1)
T11ED0 000:340.126 JLINK_GetDebugInfo(0x10F = JLINKARM_DEBUG_INFO_HAS_CORTEX_M_SECURITY_EXT_INDEX)
T11ED0 000:340.131   Value=0x00000000
T11ED0 000:340.136 - 0.012ms returns 0
T11ED0 000:340.142 JLINK_HasError()
T11ED0 000:340.148 JLINK_SetResetType(JLINKARM_CM3_RESET_TYPE_NORMAL)
T11ED0 000:340.152 - 0.005ms returns JLINKARM_CM3_RESET_TYPE_NORMAL
T11ED0 000:340.157 JLINK_Reset()
T11ED0 000:340.923   CPU is running
T11ED0 000:340.934   CPU_WriteMem(4 bytes @ 0xE000EDF0)
T11ED0 000:341.633   CPU is running
T11ED0 000:341.670   CPU_WriteMem(4 bytes @ 0xE000EDFC)
T11ED0 000:346.724   Reset: Halt core after reset via DEMCR.VC_CORERESET.
T11ED0 000:349.896   Reset: Reset device via AIRCR.SYSRESETREQ.
T11ED0 000:349.912   CPU is running
T11ED0 000:349.920   CPU_WriteMem(4 bytes @ 0xE000ED0C)
T11ED0 000:404.031   CPU_ReadMem(4 bytes @ 0xE000EDF0)
T11ED0 000:404.810   CPU_ReadMem(4 bytes @ 0xE000EDF0)
T11ED0 000:412.073   CPU_WriteMem(4 bytes @ 0xE000EDFC)
T11ED0 000:417.967   CPU_ReadMem(4 bytes @ 0xE000EDF0)
T11ED0 000:425.097   CPU_WriteMem(4 bytes @ 0xE0002000)
T11ED0 000:425.873   CPU_ReadMem(4 bytes @ 0xE000EDFC)
T11ED0 000:426.681   CPU_ReadMem(4 bytes @ 0xE0001000)
T11ED0 000:427.601 - 87.450ms
T11ED0 000:427.667 JLINK_Halt()
T11ED0 000:427.676 - 0.013ms returns 0x00
T11ED0 000:427.692 JLINK_ReadMemU32(0xE000EDF0, 0x1 Items)
T11ED0 000:427.709   CPU_ReadMem(4 bytes @ 0xE000EDF0)
T11ED0 000:477.938   Data:  03 00 03 00
T11ED0 000:477.988   Debug reg: DHCSR
T11ED0 000:477.993 - 50.303ms returns 1 (0x1)
T11ED0 000:478.131 JLINK_WriteU32_64(0xE000EDF0, 0xA05F0003)
T11ED0 000:478.139   Debug reg: DHCSR
T11ED0 000:478.405   CPU_WriteMem(4 bytes @ 0xE000EDF0)
T11ED0 000:479.345 - 1.268ms returns 0 (0x00000000)
T11ED0 000:479.449 JLINK_WriteU32_64(0xE000EDFC, 0x01000000)
T11ED0 000:479.454   Debug reg: DEMCR
T11ED0 000:479.467   CPU_WriteMem(4 bytes @ 0xE000EDFC)
T11ED0 000:480.192 - 0.760ms returns 0 (0x00000000)
T11ED0 000:492.054 JLINK_GetHWStatus(...)
T11ED0 000:492.428 - 0.387ms returns 0
T11ED0 000:498.441 JLINK_GetNumBPUnits(Type = 0xFFFFFF00)
T11ED0 000:498.461 - 0.022ms returns 0x06
T11ED0 000:498.467 JLINK_GetNumBPUnits(Type = 0xF0)
T11ED0 000:498.471 - 0.005ms returns 0x2000
T11ED0 000:498.476 JLINK_GetNumWPUnits()
T11ED0 000:498.479 - 0.005ms returns 4
T11ED0 000:504.255 JLINK_GetSpeed()
T11ED0 000:504.268 - 0.015ms returns 1000
T11ED0 000:508.068 JLINK_ReadMemU32(0xE000E004, 0x1 Items)
T11ED0 000:508.104   CPU_ReadMem(4 bytes @ 0xE000E004)
T11ED0 000:509.019   Data:  01 00 00 00
T11ED0 000:509.033 - 0.966ms returns 1 (0x1)
T11ED0 000:509.080 JLINK_ReadMemU32(0xE000E004, 0x1 Items)
T11ED0 000:509.090   CPU_ReadMem(4 bytes @ 0xE000E004)
T11ED0 000:509.814   Data:  01 00 00 00
T11ED0 000:509.845 - 0.767ms returns 1 (0x1)
T11ED0 000:509.898 JLINK_WriteMemEx(0xE0001000, 0x0000001C Bytes, Flags = 0x02000004)
T11ED0 000:509.907   Data:  01 00 00 00 00 00 00 00 00 00 00 00 00 00 00 00 ...
T11ED0 000:509.920   CPU_WriteMem(28 bytes @ 0xE0001000)
T11ED0 000:510.877 - 1.009ms returns 0x1C
T11ED0 000:510.947 JLINK_Halt()
T11ED0 000:510.951 - 0.005ms returns 0x00
T11ED0 000:510.956 JLINK_IsHalted()
T11ED0 000:510.960 - 0.005ms returns TRUE
T11ED0 000:513.237 JLINK_WriteMem(0x20000000, 0x5B8 Bytes, ...)
T11ED0 000:513.244   Data:  00 BE 0A E0 0D 78 2D 06 68 40 08 24 40 00 00 D3 ...
T11ED0 000:513.431   CPU_WriteMem(1464 bytes @ 0x20000000)
T11ED0 000:531.982 - 18.794ms returns 0x5B8
T11ED0 000:532.136 JLINK_HasError()
T11ED0 000:532.144 JLINK_WriteReg(R0, 0x00000000)
T11ED0 000:532.159 - 0.016ms returns 0
T11ED0 000:532.164 JLINK_WriteReg(R1, 0x00B71B00)
T11ED0 000:532.168 - 0.005ms returns 0
T11ED0 000:532.172 JLINK_WriteReg(R2, 0x00000001)
T11ED0 000:532.176 - 0.005ms returns 0
T11ED0 000:532.180 JLINK_WriteReg(R3, 0x00000000)
T11ED0 000:532.183 - 0.005ms returns 0
T11ED0 000:532.188 JLINK_WriteReg(R4, 0x00000000)
T11ED0 000:532.191 - 0.005ms returns 0
T11ED0 000:532.195 JLINK_WriteReg(R5, 0x00000000)
T11ED0 000:532.199 - 0.008ms returns 0
T11ED0 000:532.209 JLINK_WriteReg(R6, 0x00000000)
T11ED0 000:532.212 - 0.005ms returns 0
T11ED0 000:532.217 JLINK_WriteReg(R7, 0x00000000)
T11ED0 000:532.220 - 0.005ms returns 0
T11ED0 000:532.224 JLINK_WriteReg(R8, 0x00000000)
T11ED0 000:532.238 - 0.015ms returns 0
T11ED0 000:532.242 JLINK_WriteReg(R9, 0x200005B4)
T11ED0 000:532.246 - 0.005ms returns 0
T11ED0 000:532.250 JLINK_WriteReg(R10, 0x00000000)
T11ED0 000:532.254 - 0.005ms returns 0
T11ED0 000:532.258 JLINK_WriteReg(R11, 0x00000000)
T11ED0 000:532.261 - 0.005ms returns 0
T11ED0 000:532.265 JLINK_WriteReg(R12, 0x00000000)
T11ED0 000:532.269 - 0.005ms returns 0
T11ED0 000:532.273 JLINK_WriteReg(R13 (SP), 0x20004000)
T11ED0 000:532.278 - 0.006ms returns 0
T11ED0 000:532.282 JLINK_WriteReg(R14, 0x20000001)
T11ED0 000:532.286 - 0.005ms returns 0
T11ED0 000:532.290 JLINK_WriteReg(R15 (PC), 0x20000020)
T11ED0 000:532.297 - 0.009ms returns 0
T11ED0 000:532.301 JLINK_WriteReg(XPSR, 0x01000000)
T11ED0 000:532.305 - 0.005ms returns 0
T11ED0 000:532.309 JLINK_WriteReg(MSP, 0x20004000)
T11ED0 000:532.313 - 0.005ms returns 0
T11ED0 000:532.317 JLINK_WriteReg(PSP, 0x20004000)
T11ED0 000:532.321 - 0.005ms returns 0
T11ED0 000:532.325 JLINK_WriteReg(CFBP, 0x00000000)
T11ED0 000:532.329 - 0.005ms returns 0
T11ED0 000:532.333 JLINK_SetBPEx(Addr = 0x20000000, Type = 0xFFFFFFF2)
T11ED0 000:532.341   CPU_ReadMem(2 bytes @ 0x20000000)
T11ED0 000:533.101 - 0.772ms returns 0x00000001
T11ED0 000:533.131 JLINK_Go()
T11ED0 000:533.138   CPU_WriteMem(2 bytes @ 0x20000000)
T11ED0 000:533.849   CPU_ReadMem(4 bytes @ 0xE0001000)
T11ED0 000:534.589   CPU_WriteMem(4 bytes @ 0xE0002008)
T11ED0 000:534.595   CPU_WriteMem(4 bytes @ 0xE000200C)
T11ED0 000:534.601   CPU_WriteMem(4 bytes @ 0xE0002010)
T11ED0 000:534.606   CPU_WriteMem(4 bytes @ 0xE0002014)
T11ED0 000:534.614   CPU_WriteMem(4 bytes @ 0xE0002018)
T11ED0 000:534.619   CPU_WriteMem(4 bytes @ 0xE000201C)
T11ED0 000:537.235   CPU_WriteMem(4 bytes @ 0xE0001004)
T11ED0 000:543.956 - 10.870ms
T11ED0 000:544.038 JLINK_IsHalted()
T11ED0 000:550.757   CPU_ReadMem(2 bytes @ 0x20000000)
T11ED0 000:551.564 - 7.551ms returns TRUE
T11ED0 000:551.679 JLINK_ReadReg(R15 (PC))
T11ED0 000:551.694 - 0.018ms returns 0x20000000
T11ED0 000:551.703 JLINK_ClrBPEx(BPHandle = 0x00000001)
T11ED0 000:551.711 - 0.011ms returns 0x00
T11ED0 000:551.720 JLINK_ReadReg(R0)
T11ED0 000:551.727 - 0.010ms returns 0x00000000
T11ED0 000:552.201 JLINK_HasError()
T11ED0 000:552.219 JLINK_WriteReg(R0, 0x00000000)
T11ED0 000:552.230 - 0.014ms returns 0
T11ED0 000:552.239 JLINK_WriteReg(R1, 0x00001000)
T11ED0 000:552.246 - 0.010ms returns 0
T11ED0 000:552.255 JLINK_WriteReg(R2, 0x000000FF)
T11ED0 000:552.262 - 0.010ms returns 0
T11ED0 000:552.270 JLINK_WriteReg(R3, 0x00000000)
T11ED0 000:552.277 - 0.010ms returns 0
T11ED0 000:552.286 JLINK_WriteReg(R4, 0x00000000)
T11ED0 000:552.293 - 0.010ms returns 0
T11ED0 000:552.301 JLINK_WriteReg(R5, 0x00000000)
T11ED0 000:552.308 - 0.010ms returns 0
T11ED0 000:552.316 JLINK_WriteReg(R6, 0x00000000)
T11ED0 000:552.328 - 0.015ms returns 0
T11ED0 000:552.336 JLINK_WriteReg(R7, 0x00000000)
T11ED0 000:552.343 - 0.010ms returns 0
T11ED0 000:552.352 JLINK_WriteReg(R8, 0x00000000)
T11ED0 000:552.359 - 0.010ms returns 0
T11ED0 000:552.367 JLINK_WriteReg(R9, 0x200005B4)
T11ED0 000:552.374 - 0.010ms returns 0
T11ED0 000:552.383 JLINK_WriteReg(R10, 0x00000000)
T11ED0 000:552.390 - 0.010ms returns 0
T11ED0 000:552.398 JLINK_WriteReg(R11, 0x00000000)
T11ED0 000:552.405 - 0.010ms returns 0
T11ED0 000:552.413 JLINK_WriteReg(R12, 0x00000000)
T11ED0 000:552.420 - 0.010ms returns 0
T11ED0 000:552.428 JLINK_WriteReg(R13 (SP), 0x20004000)
T11ED0 000:552.436 - 0.010ms returns 0
T11ED0 000:552.444 JLINK_WriteReg(R14, 0x20000001)
T11ED0 000:552.451 - 0.010ms returns 0
T11ED0 000:552.460 JLINK_WriteReg(R15 (PC), 0x20000288)
T11ED0 000:552.467 - 0.010ms returns 0
T11ED0 000:552.475 JLINK_WriteReg(XPSR, 0x01000000)
T11ED0 000:552.483 - 0.011ms returns 0
T11ED0 000:552.549 JLINK_WriteReg(MSP, 0x20004000)
T11ED0 000:552.561 - 0.014ms returns 0
T11ED0 000:552.569 JLINK_WriteReg(PSP, 0x20004000)
T11ED0 000:552.576 - 0.010ms returns 0
T11ED0 000:552.584 JLINK_WriteReg(CFBP, 0x00000000)
T11ED0 000:552.591 - 0.010ms returns 0
T11ED0 000:552.600 JLINK_SetBPEx(Addr = 0x20000000, Type = 0xFFFFFFF2)
T11ED0 000:552.609 - 0.012ms returns 0x00000002
T11ED0 000:552.617 JLINK_Go()
T11ED0 000:552.635   CPU_ReadMem(4 bytes @ 0xE0001000)
T11ED0 000:559.403 - 6.798ms
T11ED0 000:559.453 JLINK_IsHalted()
T11ED0 000:566.170   CPU_ReadMem(2 bytes @ 0x20000000)
T11ED0 000:567.049 - 7.610ms returns TRUE
T11ED0 000:567.109 JLINK_ReadReg(R15 (PC))
T11ED0 000:567.119 - 0.012ms returns 0x20000000
T11ED0 000:567.139 JLINK_ClrBPEx(BPHandle = 0x00000002)
T11ED0 000:567.145 - 0.009ms returns 0x00
T11ED0 000:567.153 JLINK_ReadReg(R0)
T11ED0 000:567.170 - 0.020ms returns 0x00000001
T11ED0 000:567.178 JLINK_HasError()
T11ED0 000:567.186 JLINK_WriteReg(R0, 0x00000000)
T11ED0 000:567.193 - 0.010ms returns 0
T11ED0 000:567.202 JLINK_WriteReg(R1, 0x00001000)
T11ED0 000:567.208 - 0.009ms returns 0
T11ED0 000:567.215 JLINK_WriteReg(R2, 0x000000FF)
T11ED0 000:567.222 - 0.009ms returns 0
T11ED0 000:567.229 JLINK_WriteReg(R3, 0x00000000)
T11ED0 000:567.235 - 0.009ms returns 0
T11ED0 000:567.243 JLINK_WriteReg(R4, 0x00000000)
T11ED0 000:567.249 - 0.009ms returns 0
T11ED0 000:567.256 JLINK_WriteReg(R5, 0x00000000)
T11ED0 000:567.262 - 0.009ms returns 0
T11ED0 000:567.270 JLINK_WriteReg(R6, 0x00000000)
T11ED0 000:567.277 - 0.009ms returns 0
T11ED0 000:567.284 JLINK_WriteReg(R7, 0x00000000)
T11ED0 000:567.290 - 0.009ms returns 0
T11ED0 000:567.298 JLINK_WriteReg(R8, 0x00000000)
T11ED0 000:567.304 - 0.009ms returns 0
T11ED0 000:567.311 JLINK_WriteReg(R9, 0x200005B4)
T11ED0 000:567.317 - 0.009ms returns 0
T11ED0 000:567.325 JLINK_WriteReg(R10, 0x00000000)
T11ED0 000:567.331 - 0.009ms returns 0
T11ED0 000:567.338 JLINK_WriteReg(R11, 0x00000000)
T11ED0 000:567.344 - 0.009ms returns 0
T11ED0 000:567.352 JLINK_WriteReg(R12, 0x00000000)
T11ED0 000:567.358 - 0.009ms returns 0
T11ED0 000:567.365 JLINK_WriteReg(R13 (SP), 0x20004000)
T11ED0 000:567.372 - 0.010ms returns 0
T11ED0 000:567.380 JLINK_WriteReg(R14, 0x20000001)
T11ED0 000:567.386 - 0.009ms returns 0
T11ED0 000:567.393 JLINK_WriteReg(R15 (PC), 0x200000D4)
T11ED0 000:567.400 - 0.009ms returns 0
T11ED0 000:567.407 JLINK_WriteReg(XPSR, 0x01000000)
T11ED0 000:567.413 - 0.009ms returns 0
T11ED0 000:567.421 JLINK_WriteReg(MSP, 0x20004000)
T11ED0 000:567.427 - 0.009ms returns 0
T11ED0 000:567.434 JLINK_WriteReg(PSP, 0x20004000)
T11ED0 000:567.440 - 0.009ms returns 0
T11ED0 000:567.448 JLINK_WriteReg(CFBP, 0x00000000)
T11ED0 000:567.454 - 0.009ms returns 0
T11ED0 000:567.462 JLINK_SetBPEx(Addr = 0x20000000, Type = 0xFFFFFFF2)
T11ED0 000:567.469 - 0.010ms returns 0x00000003
T11ED0 000:567.476 JLINK_Go()
T11ED0 000:567.489   CPU_ReadMem(4 bytes @ 0xE0001000)
T11ED0 000:623.534 - 56.081ms
T11ED0 000:623.624 JLINK_IsHalted()
T11ED0 000:624.443 - 0.825ms returns FALSE
T11ED0 000:624.495 JLINK_HasError()
T11ED0 000:639.340 JLINK_IsHalted()
T11ED0 000:640.158 - 0.839ms returns FALSE
T11ED0 000:640.238 JLINK_HasError()
T11ED0 000:642.503 JLINK_IsHalted()
T11ED0 000:643.279 - 0.793ms returns FALSE
T11ED0 000:643.324 JLINK_HasError()
T11ED0 000:644.528 JLINK_IsHalted()
T11ED0 000:645.332 - 0.818ms returns FALSE
T11ED0 000:645.383 JLINK_HasError()
T11ED0 000:646.821 JLINK_IsHalted()
T11ED0 000:647.577 - 0.763ms returns FALSE
T11ED0 000:647.632 JLINK_HasError()
T11ED0 000:650.719 JLINK_IsHalted()
T11ED0 000:651.627 - 0.926ms returns FALSE
T11ED0 000:651.679 JLINK_HasError()
T11ED0 000:652.766 JLINK_IsHalted()
T11ED0 000:653.431 - 0.669ms returns FALSE
T11ED0 000:653.460 JLINK_HasError()
T11ED0 000:655.914 JLINK_IsHalted()
T11ED0 000:656.777 - 0.895ms returns FALSE
T11ED0 000:656.850 JLINK_HasError()
T11ED0 000:657.938 JLINK_IsHalted()
T11ED0 000:658.773 - 0.859ms returns FALSE
T11ED0 000:658.838 JLINK_HasError()
T11ED0 000:660.092 JLINK_IsHalted()
T11ED0 000:660.929 - 0.850ms returns FALSE
T11ED0 000:660.994 JLINK_HasError()
T11ED0 000:663.301 JLINK_IsHalted()
T11ED0 000:664.179 - 0.898ms returns FALSE
T11ED0 000:664.234 JLINK_HasError()
T11ED0 000:665.298 JLINK_IsHalted()
T11ED0 000:666.269 - 0.985ms returns FALSE
T11ED0 000:666.327 JLINK_HasError()
T11ED0 000:667.872 JLINK_IsHalted()
T11ED0 000:668.725 - 0.858ms returns FALSE
T11ED0 000:668.760 JLINK_HasError()
T11ED0 000:672.353 JLINK_IsHalted()
T11ED0 000:673.164 - 0.820ms returns FALSE
T11ED0 000:673.224 JLINK_HasError()
T11ED0 000:674.541 JLINK_IsHalted()
T11ED0 000:675.365 - 0.843ms returns FALSE
T11ED0 000:675.427 JLINK_HasError()
T11ED0 000:676.536 JLINK_IsHalted()
T11ED0 000:677.347 - 0.814ms returns FALSE
T11ED0 000:677.374 JLINK_HasError()
T11ED0 000:679.762 JLINK_IsHalted()
T11ED0 000:733.744   CPU_ReadMem(2 bytes @ 0x20000000)
T11ED0 000:734.572 - 54.829ms returns TRUE
T11ED0 000:734.683 JLINK_ReadReg(R15 (PC))
T11ED0 000:734.698 - 0.018ms returns 0x20000000
T11ED0 000:734.715 JLINK_ClrBPEx(BPHandle = 0x00000003)
T11ED0 000:734.723 - 0.011ms returns 0x00
T11ED0 000:734.733 JLINK_ReadReg(R0)
T11ED0 000:734.740 - 0.010ms returns 0x00000000
T11ED0 000:735.424 JLINK_HasError()
T11ED0 000:735.443 JLINK_WriteReg(R0, 0x00001000)
T11ED0 000:735.454 - 0.013ms returns 0
T11ED0 000:735.463 JLINK_WriteReg(R1, 0x00001000)
T11ED0 000:735.471 - 0.010ms returns 0
T11ED0 000:735.479 JLINK_WriteReg(R2, 0x000000FF)
T11ED0 000:735.485 - 0.009ms returns 0
T11ED0 000:735.493 JLINK_WriteReg(R3, 0x00000000)
T11ED0 000:735.499 - 0.009ms returns 0
T11ED0 000:735.507 JLINK_WriteReg(R4, 0x00000000)
T11ED0 000:735.513 - 0.009ms returns 0
T11ED0 000:735.521 JLINK_WriteReg(R5, 0x00000000)
T11ED0 000:735.527 - 0.009ms returns 0
T11ED0 000:735.535 JLINK_WriteReg(R6, 0x00000000)
T11ED0 000:735.542 - 0.009ms returns 0
T11ED0 000:735.549 JLINK_WriteReg(R7, 0x00000000)
T11ED0 000:735.556 - 0.009ms returns 0
T11ED0 000:735.563 JLINK_WriteReg(R8, 0x00000000)
T11ED0 000:735.570 - 0.009ms returns 0
T11ED0 000:735.577 JLINK_WriteReg(R9, 0x200005B4)
T11ED0 000:735.584 - 0.010ms returns 0
T11ED0 000:735.592 JLINK_WriteReg(R10, 0x00000000)
T11ED0 000:735.599 - 0.009ms returns 0
T11ED0 000:735.606 JLINK_WriteReg(R11, 0x00000000)
T11ED0 000:735.613 - 0.009ms returns 0
T11ED0 000:735.620 JLINK_WriteReg(R12, 0x00000000)
T11ED0 000:735.627 - 0.009ms returns 0
T11ED0 000:735.634 JLINK_WriteReg(R13 (SP), 0x20004000)
T11ED0 000:735.642 - 0.010ms returns 0
T11ED0 000:735.649 JLINK_WriteReg(R14, 0x20000001)
T11ED0 000:735.656 - 0.009ms returns 0
T11ED0 000:735.664 JLINK_WriteReg(R15 (PC), 0x20000288)
T11ED0 000:735.670 - 0.009ms returns 0
T11ED0 000:735.678 JLINK_WriteReg(XPSR, 0x01000000)
T11ED0 000:735.685 - 0.009ms returns 0
T11ED0 000:735.692 JLINK_WriteReg(MSP, 0x20004000)
T11ED0 000:735.699 - 0.009ms returns 0
T11ED0 000:735.706 JLINK_WriteReg(PSP, 0x20004000)
T11ED0 000:735.713 - 0.009ms returns 0
T11ED0 000:735.720 JLINK_WriteReg(CFBP, 0x00000000)
T11ED0 000:735.727 - 0.009ms returns 0
T11ED0 000:735.735 JLINK_SetBPEx(Addr = 0x20000000, Type = 0xFFFFFFF2)
T11ED0 000:735.743 - 0.011ms returns 0x00000004
T11ED0 000:735.751 JLINK_Go()
T11ED0 000:735.766   CPU_ReadMem(4 bytes @ 0xE0001000)
T11ED0 000:742.500 - 6.793ms
T11ED0 000:742.584 JLINK_IsHalted()
T11ED0 000:749.251   CPU_ReadMem(2 bytes @ 0x20000000)
T11ED0 000:750.136 - 7.566ms returns TRUE
T11ED0 000:750.198 JLINK_ReadReg(R15 (PC))
T11ED0 000:750.208 - 0.012ms returns 0x20000000
T11ED0 000:750.216 JLINK_ClrBPEx(BPHandle = 0x00000004)
T11ED0 000:750.223 - 0.010ms returns 0x00
T11ED0 000:750.231 JLINK_ReadReg(R0)
T11ED0 000:750.237 - 0.009ms returns 0x00000001
T11ED0 000:750.245 JLINK_HasError()
T11ED0 000:750.254 JLINK_WriteReg(R0, 0x00001000)
T11ED0 000:750.261 - 0.010ms returns 0
T11ED0 000:750.268 JLINK_WriteReg(R1, 0x00001000)
T11ED0 000:750.274 - 0.008ms returns 0
T11ED0 000:750.281 JLINK_WriteReg(R2, 0x000000FF)
T11ED0 000:750.287 - 0.009ms returns 0
T11ED0 000:750.299 JLINK_WriteReg(R3, 0x00000000)
T11ED0 000:750.308 - 0.011ms returns 0
T11ED0 000:750.316 JLINK_WriteReg(R4, 0x00000000)
T11ED0 000:750.322 - 0.008ms returns 0
T11ED0 000:750.329 JLINK_WriteReg(R5, 0x00000000)
T11ED0 000:750.335 - 0.008ms returns 0
T11ED0 000:750.342 JLINK_WriteReg(R6, 0x00000000)
T11ED0 000:750.348 - 0.009ms returns 0
T11ED0 000:750.355 JLINK_WriteReg(R7, 0x00000000)
T11ED0 000:750.361 - 0.008ms returns 0
T11ED0 000:750.368 JLINK_WriteReg(R8, 0x00000000)
T11ED0 000:750.374 - 0.008ms returns 0
T11ED0 000:750.381 JLINK_WriteReg(R9, 0x200005B4)
T11ED0 000:750.388 - 0.008ms returns 0
T11ED0 000:750.395 JLINK_WriteReg(R10, 0x00000000)
T11ED0 000:750.401 - 0.009ms returns 0
T11ED0 000:750.410 JLINK_WriteReg(R11, 0x00000000)
T11ED0 000:750.417 - 0.009ms returns 0
T11ED0 000:750.424 JLINK_WriteReg(R12, 0x00000000)
T11ED0 000:750.430 - 0.009ms returns 0
T11ED0 000:750.437 JLINK_WriteReg(R13 (SP), 0x20004000)
T11ED0 000:750.444 - 0.009ms returns 0
T11ED0 000:750.451 JLINK_WriteReg(R14, 0x20000001)
T11ED0 000:750.458 - 0.009ms returns 0
T11ED0 000:750.465 JLINK_WriteReg(R15 (PC), 0x200000D4)
T11ED0 000:750.471 - 0.009ms returns 0
T11ED0 000:750.479 JLINK_WriteReg(XPSR, 0x01000000)
T11ED0 000:750.485 - 0.009ms returns 0
T11ED0 000:750.492 JLINK_WriteReg(MSP, 0x20004000)
T11ED0 000:750.499 - 0.009ms returns 0
T11ED0 000:750.506 JLINK_WriteReg(PSP, 0x20004000)
T11ED0 000:750.512 - 0.009ms returns 0
T11ED0 000:750.520 JLINK_WriteReg(CFBP, 0x00000000)
T11ED0 000:750.526 - 0.009ms returns 0
T11ED0 000:750.534 JLINK_SetBPEx(Addr = 0x20000000, Type = 0xFFFFFFF2)
T11ED0 000:750.541 - 0.010ms returns 0x00000005
T11ED0 000:750.549 JLINK_Go()
T11ED0 000:750.562   CPU_ReadMem(4 bytes @ 0xE0001000)
T11ED0 000:757.139 - 6.614ms
T11ED0 000:757.273 JLINK_IsHalted()
T11ED0 000:757.921 - 0.666ms returns FALSE
T11ED0 000:758.013 JLINK_HasError()
T11ED0 000:764.402 JLINK_IsHalted()
T11ED0 000:765.181 - 0.787ms returns FALSE
T11ED0 000:765.222 JLINK_HasError()
T11ED0 000:766.959 JLINK_IsHalted()
T11ED0 000:767.762 - 0.806ms returns FALSE
T11ED0 000:767.803 JLINK_HasError()
T11ED0 000:768.961 JLINK_IsHalted()
T11ED0 000:769.694 - 0.737ms returns FALSE
T11ED0 000:769.728 JLINK_HasError()
T11ED0 000:770.973 JLINK_IsHalted()
T11ED0 000:771.661 - 0.693ms returns FALSE
T11ED0 000:771.706 JLINK_HasError()
T11ED0 000:773.150 JLINK_IsHalted()
T11ED0 000:773.861 - 0.715ms returns FALSE
T11ED0 000:773.898 JLINK_HasError()
T11ED0 000:775.321 JLINK_IsHalted()
T11ED0 000:776.056 - 0.749ms returns FALSE
T11ED0 000:776.118 JLINK_HasError()
T11ED0 000:777.392 JLINK_IsHalted()
T11ED0 000:778.113 - 0.732ms returns FALSE
T11ED0 000:778.175 JLINK_HasError()
T11ED0 000:779.462 JLINK_IsHalted()
T11ED0 000:780.294 - 0.847ms returns FALSE
T11ED0 000:780.402 JLINK_HasError()
T11ED0 000:781.599 JLINK_IsHalted()
T11ED0 000:782.335 - 0.749ms returns FALSE
T11ED0 000:782.378 JLINK_HasError()
T11ED0 000:783.710 JLINK_IsHalted()
T11ED0 000:784.516 - 0.822ms returns FALSE
T11ED0 000:784.571 JLINK_HasError()
T11ED0 000:786.014 JLINK_IsHalted()
T11ED0 000:786.768 - 0.768ms returns FALSE
T11ED0 000:786.816 JLINK_HasError()
T11ED0 000:788.201 JLINK_IsHalted()
T11ED0 000:837.763 - 49.594ms returns FALSE
T11ED0 000:837.904 JLINK_HasError()
T11ED0 000:841.066 JLINK_IsHalted()
T11ED0 000:847.757   CPU_ReadMem(2 bytes @ 0x20000000)
T11ED0 000:848.516 - 7.459ms returns TRUE
T11ED0 000:848.574 JLINK_ReadReg(R15 (PC))
T11ED0 000:848.581 - 0.010ms returns 0x20000000
T11ED0 000:848.588 JLINK_ClrBPEx(BPHandle = 0x00000005)
T11ED0 000:848.593 - 0.007ms returns 0x00
T11ED0 000:848.598 JLINK_ReadReg(R0)
T11ED0 000:848.603 - 0.006ms returns 0x00000000
T11ED0 000:849.983 JLINK_HasError()
T11ED0 000:850.007 JLINK_WriteReg(R0, 0x00002000)
T11ED0 000:850.015 - 0.009ms returns 0
T11ED0 000:850.020 JLINK_WriteReg(R1, 0x00001000)
T11ED0 000:850.025 - 0.007ms returns 0
T11ED0 000:850.030 JLINK_WriteReg(R2, 0x000000FF)
T11ED0 000:850.034 - 0.006ms returns 0
T11ED0 000:850.039 JLINK_WriteReg(R3, 0x00000000)
T11ED0 000:850.050 - 0.013ms returns 0
T11ED0 000:850.055 JLINK_WriteReg(R4, 0x00000000)
T11ED0 000:850.060 - 0.007ms returns 0
T11ED0 000:850.067 JLINK_WriteReg(R5, 0x00000000)
T11ED0 000:850.071 - 0.005ms returns 0
T11ED0 000:850.075 JLINK_WriteReg(R6, 0x00000000)
T11ED0 000:850.078 - 0.005ms returns 0
T11ED0 000:850.082 JLINK_WriteReg(R7, 0x00000000)
T11ED0 000:850.086 - 0.005ms returns 0
T11ED0 000:850.090 JLINK_WriteReg(R8, 0x00000000)
T11ED0 000:850.094 - 0.005ms returns 0
T11ED0 000:850.098 JLINK_WriteReg(R9, 0x200005B4)
T11ED0 000:850.102 - 0.005ms returns 0
T11ED0 000:850.106 JLINK_WriteReg(R10, 0x00000000)
T11ED0 000:850.110 - 0.005ms returns 0
T11ED0 000:850.114 JLINK_WriteReg(R11, 0x00000000)
T11ED0 000:850.118 - 0.005ms returns 0
T11ED0 000:850.122 JLINK_WriteReg(R12, 0x00000000)
T11ED0 000:850.125 - 0.005ms returns 0
T11ED0 000:850.129 JLINK_WriteReg(R13 (SP), 0x20004000)
T11ED0 000:850.134 - 0.005ms returns 0
T11ED0 000:850.138 JLINK_WriteReg(R14, 0x20000001)
T11ED0 000:850.141 - 0.005ms returns 0
T11ED0 000:850.146 JLINK_WriteReg(R15 (PC), 0x20000288)
T11ED0 000:850.149 - 0.005ms returns 0
T11ED0 000:850.154 JLINK_WriteReg(XPSR, 0x01000000)
T11ED0 000:850.157 - 0.005ms returns 0
T11ED0 000:850.161 JLINK_WriteReg(MSP, 0x20004000)
T11ED0 000:850.165 - 0.005ms returns 0
T11ED0 000:850.169 JLINK_WriteReg(PSP, 0x20004000)
T11ED0 000:850.173 - 0.005ms returns 0
T11ED0 000:850.177 JLINK_WriteReg(CFBP, 0x00000000)
T11ED0 000:850.180 - 0.005ms returns 0
T11ED0 000:850.185 JLINK_SetBPEx(Addr = 0x20000000, Type = 0xFFFFFFF2)
T11ED0 000:850.190 - 0.006ms returns 0x00000006
T11ED0 000:850.194 JLINK_Go()
T11ED0 000:850.205   CPU_ReadMem(4 bytes @ 0xE0001000)
T11ED0 000:856.815 - 6.631ms
T11ED0 000:856.861 JLINK_IsHalted()
T11ED0 000:863.492   CPU_ReadMem(2 bytes @ 0x20000000)
T11ED0 000:864.309 - 7.465ms returns TRUE
T11ED0 000:864.409 JLINK_ReadReg(R15 (PC))
T11ED0 000:864.419 - 0.013ms returns 0x20000000
T11ED0 000:864.427 JLINK_ClrBPEx(BPHandle = 0x00000006)
T11ED0 000:864.433 - 0.009ms returns 0x00
T11ED0 000:864.440 JLINK_ReadReg(R0)
T11ED0 000:864.446 - 0.008ms returns 0x00000001
T11ED0 000:864.453 JLINK_HasError()
T11ED0 000:864.460 JLINK_WriteReg(R0, 0x00002000)
T11ED0 000:864.467 - 0.008ms returns 0
T11ED0 000:864.473 JLINK_WriteReg(R1, 0x00001000)
T11ED0 000:864.479 - 0.008ms returns 0
T11ED0 000:864.491 JLINK_WriteReg(R2, 0x000000FF)
T11ED0 000:864.496 - 0.008ms returns 0
T11ED0 000:864.503 JLINK_WriteReg(R3, 0x00000000)
T11ED0 000:864.508 - 0.008ms returns 0
T11ED0 000:864.586 JLINK_WriteReg(R4, 0x00000000)
T11ED0 000:864.608 - 0.025ms returns 0
T11ED0 000:864.617 JLINK_WriteReg(R5, 0x00000000)
T11ED0 000:864.623 - 0.008ms returns 0
T11ED0 000:864.630 JLINK_WriteReg(R6, 0x00000000)
T11ED0 000:864.635 - 0.008ms returns 0
T11ED0 000:864.642 JLINK_WriteReg(R7, 0x00000000)
T11ED0 000:864.648 - 0.008ms returns 0
T11ED0 000:864.654 JLINK_WriteReg(R8, 0x00000000)
T11ED0 000:864.660 - 0.008ms returns 0
T11ED0 000:864.666 JLINK_WriteReg(R9, 0x200005B4)
T11ED0 000:864.671 - 0.008ms returns 0
T11ED0 000:864.678 JLINK_WriteReg(R10, 0x00000000)
T11ED0 000:864.683 - 0.007ms returns 0
T11ED0 000:864.690 JLINK_WriteReg(R11, 0x00000000)
T11ED0 000:864.695 - 0.008ms returns 0
T11ED0 000:864.702 JLINK_WriteReg(R12, 0x00000000)
T11ED0 000:864.707 - 0.007ms returns 0
T11ED0 000:864.713 JLINK_WriteReg(R13 (SP), 0x20004000)
T11ED0 000:864.719 - 0.008ms returns 0
T11ED0 000:864.726 JLINK_WriteReg(R14, 0x20000001)
T11ED0 000:864.731 - 0.008ms returns 0
T11ED0 000:864.737 JLINK_WriteReg(R15 (PC), 0x200000D4)
T11ED0 000:864.743 - 0.008ms returns 0
T11ED0 000:864.749 JLINK_WriteReg(XPSR, 0x01000000)
T11ED0 000:864.755 - 0.008ms returns 0
T11ED0 000:864.761 JLINK_WriteReg(MSP, 0x20004000)
T11ED0 000:864.767 - 0.008ms returns 0
T11ED0 000:864.773 JLINK_WriteReg(PSP, 0x20004000)
T11ED0 000:864.779 - 0.008ms returns 0
T11ED0 000:864.785 JLINK_WriteReg(CFBP, 0x00000000)
T11ED0 000:864.791 - 0.008ms returns 0
T11ED0 000:864.798 JLINK_SetBPEx(Addr = 0x20000000, Type = 0xFFFFFFF2)
T11ED0 000:864.855 - 0.059ms returns 0x00000007
T11ED0 000:864.862 JLINK_Go()
T11ED0 000:864.875   CPU_ReadMem(4 bytes @ 0xE0001000)
T11ED0 000:871.564 - 6.716ms
T11ED0 000:871.640 JLINK_IsHalted()
T11ED0 000:872.492 - 0.877ms returns FALSE
T11ED0 000:872.581 JLINK_HasError()
T11ED0 000:876.147 JLINK_IsHalted()
T11ED0 000:876.982 - 0.840ms returns FALSE
T11ED0 000:877.010 JLINK_HasError()
T11ED0 000:878.335 JLINK_IsHalted()
T11ED0 000:879.127 - 0.835ms returns FALSE
T11ED0 000:879.246 JLINK_HasError()
T11ED0 000:881.456 JLINK_IsHalted()
T11ED0 000:882.304 - 0.878ms returns FALSE
T11ED0 000:882.373 JLINK_HasError()
T11ED0 000:883.556 JLINK_IsHalted()
T11ED0 000:884.346 - 0.804ms returns FALSE
T11ED0 000:884.396 JLINK_HasError()
T11ED0 000:885.811 JLINK_IsHalted()
T11ED0 000:886.568 - 0.764ms returns FALSE
T11ED0 000:886.614 JLINK_HasError()
T11ED0 000:887.854 JLINK_IsHalted()
T11ED0 000:888.781 - 0.929ms returns FALSE
T11ED0 000:888.808 JLINK_HasError()
T11ED0 000:890.215 JLINK_IsHalted()
T11ED0 000:891.021 - 0.821ms returns FALSE
T11ED0 000:891.133 JLINK_HasError()
T11ED0 000:892.211 JLINK_IsHalted()
T11ED0 000:893.029 - 0.821ms returns FALSE
T11ED0 000:893.057 JLINK_HasError()
T11ED0 000:894.135 JLINK_IsHalted()
T11ED0 000:894.942 - 0.812ms returns FALSE
T11ED0 000:894.975 JLINK_HasError()
T11ED0 000:896.217 JLINK_IsHalted()
T11ED0 000:945.416 - 49.225ms returns FALSE
T11ED0 000:945.547 JLINK_HasError()
T11ED0 000:951.742 JLINK_IsHalted()
T11ED0 000:952.562 - 0.830ms returns FALSE
T11ED0 000:952.619 JLINK_HasError()
T11ED0 000:953.686 JLINK_IsHalted()
T11ED0 000:954.471 - 0.800ms returns FALSE
T11ED0 000:954.550 JLINK_HasError()
T11ED0 000:957.228 JLINK_IsHalted()
T11ED0 000:963.850   CPU_ReadMem(2 bytes @ 0x20000000)
T11ED0 000:964.670 - 7.457ms returns TRUE
T11ED0 000:964.721 JLINK_ReadReg(R15 (PC))
T11ED0 000:964.727 - 0.010ms returns 0x20000000
T11ED0 000:964.744 JLINK_ClrBPEx(BPHandle = 0x00000007)
T11ED0 000:964.748 - 0.006ms returns 0x00
T11ED0 000:964.753 JLINK_ReadReg(R0)
T11ED0 000:964.756 - 0.005ms returns 0x00000000
T11ED0 000:965.149 JLINK_HasError()
T11ED0 000:965.165 JLINK_WriteReg(R0, 0x00003000)
T11ED0 000:965.172 - 0.009ms returns 0
T11ED0 000:965.177 JLINK_WriteReg(R1, 0x00001000)
T11ED0 000:965.183 - 0.015ms returns 0
T11ED0 000:965.195 JLINK_WriteReg(R2, 0x000000FF)
T11ED0 000:965.199 - 0.005ms returns 0
T11ED0 000:965.204 JLINK_WriteReg(R3, 0x00000000)
T11ED0 000:965.208 - 0.005ms returns 0
T11ED0 000:965.212 JLINK_WriteReg(R4, 0x00000000)
T11ED0 000:965.216 - 0.005ms returns 0
T11ED0 000:965.221 JLINK_WriteReg(R5, 0x00000000)
T11ED0 000:965.225 - 0.005ms returns 0
T11ED0 000:965.229 JLINK_WriteReg(R6, 0x00000000)
T11ED0 000:965.233 - 0.005ms returns 0
T11ED0 000:965.237 JLINK_WriteReg(R7, 0x00000000)
T11ED0 000:965.241 - 0.007ms returns 0
T11ED0 000:965.252 JLINK_WriteReg(R8, 0x00000000)
T11ED0 000:965.258 - 0.007ms returns 0
T11ED0 000:965.263 JLINK_WriteReg(R9, 0x200005B4)
T11ED0 000:965.266 - 0.005ms returns 0
T11ED0 000:965.271 JLINK_WriteReg(R10, 0x00000000)
T11ED0 000:965.274 - 0.005ms returns 0
T11ED0 000:965.279 JLINK_WriteReg(R11, 0x00000000)
T11ED0 000:965.283 - 0.005ms returns 0
T11ED0 000:965.287 JLINK_WriteReg(R12, 0x00000000)
T11ED0 000:965.291 - 0.005ms returns 0
T11ED0 000:965.295 JLINK_WriteReg(R13 (SP), 0x20004000)
T11ED0 000:965.300 - 0.006ms returns 0
T11ED0 000:965.304 JLINK_WriteReg(R14, 0x20000001)
T11ED0 000:965.308 - 0.005ms returns 0
T11ED0 000:965.312 JLINK_WriteReg(R15 (PC), 0x20000288)
T11ED0 000:965.316 - 0.005ms returns 0
T11ED0 000:965.320 JLINK_WriteReg(XPSR, 0x01000000)
T11ED0 000:965.324 - 0.005ms returns 0
T11ED0 000:965.329 JLINK_WriteReg(MSP, 0x20004000)
T11ED0 000:965.332 - 0.005ms returns 0
T11ED0 000:965.337 JLINK_WriteReg(PSP, 0x20004000)
T11ED0 000:965.341 - 0.005ms returns 0
T11ED0 000:965.345 JLINK_WriteReg(CFBP, 0x00000000)
T11ED0 000:965.349 - 0.005ms returns 0
T11ED0 000:965.353 JLINK_SetBPEx(Addr = 0x20000000, Type = 0xFFFFFFF2)
T11ED0 000:965.395 - 0.046ms returns 0x00000008
T11ED0 000:965.402 JLINK_Go()
T11ED0 000:965.414   CPU_ReadMem(4 bytes @ 0xE0001000)
T11ED0 000:972.268 - 6.876ms
T11ED0 000:972.317 JLINK_IsHalted()
T11ED0 000:979.019   CPU_ReadMem(2 bytes @ 0x20000000)
T11ED0 000:979.834 - 7.560ms returns TRUE
T11ED0 000:979.927 JLINK_ReadReg(R15 (PC))
T11ED0 000:979.935 - 0.009ms returns 0x20000000
T11ED0 000:979.944 JLINK_ClrBPEx(BPHandle = 0x00000008)
T11ED0 000:979.948 - 0.006ms returns 0x00
T11ED0 000:979.953 JLINK_ReadReg(R0)
T11ED0 000:979.957 - 0.005ms returns 0x00000001
T11ED0 000:979.963 JLINK_HasError()
T11ED0 000:979.968 JLINK_WriteReg(R0, 0x00003000)
T11ED0 000:979.972 - 0.006ms returns 0
T11ED0 000:979.977 JLINK_WriteReg(R1, 0x00001000)
T11ED0 000:979.981 - 0.005ms returns 0
T11ED0 000:979.985 JLINK_WriteReg(R2, 0x000000FF)
T11ED0 000:979.989 - 0.005ms returns 0
T11ED0 000:979.994 JLINK_WriteReg(R3, 0x00000000)
T11ED0 000:979.997 - 0.005ms returns 0
T11ED0 000:980.002 JLINK_WriteReg(R4, 0x00000000)
T11ED0 000:980.006 - 0.005ms returns 0
T11ED0 000:980.010 JLINK_WriteReg(R5, 0x00000000)
T11ED0 000:980.014 - 0.005ms returns 0
T11ED0 000:980.023 JLINK_WriteReg(R6, 0x00000000)
T11ED0 000:980.027 - 0.005ms returns 0
T11ED0 000:980.031 JLINK_WriteReg(R7, 0x00000000)
T11ED0 000:980.035 - 0.005ms returns 0
T11ED0 000:980.039 JLINK_WriteReg(R8, 0x00000000)
T11ED0 000:980.043 - 0.005ms returns 0
T11ED0 000:980.048 JLINK_WriteReg(R9, 0x200005B4)
T11ED0 000:980.052 - 0.005ms returns 0
T11ED0 000:980.056 JLINK_WriteReg(R10, 0x00000000)
T11ED0 000:980.060 - 0.005ms returns 0
T11ED0 000:980.065 JLINK_WriteReg(R11, 0x00000000)
T11ED0 000:980.068 - 0.005ms returns 0
T11ED0 000:980.073 JLINK_WriteReg(R12, 0x00000000)
T11ED0 000:980.077 - 0.005ms returns 0
T11ED0 000:980.081 JLINK_WriteReg(R13 (SP), 0x20004000)
T11ED0 000:980.085 - 0.006ms returns 0
T11ED0 000:980.090 JLINK_WriteReg(R14, 0x20000001)
T11ED0 000:980.094 - 0.005ms returns 0
T11ED0 000:980.098 JLINK_WriteReg(R15 (PC), 0x200000D4)
T11ED0 000:980.102 - 0.005ms returns 0
T11ED0 000:980.107 JLINK_WriteReg(XPSR, 0x01000000)
T11ED0 000:980.110 - 0.005ms returns 0
T11ED0 000:980.115 JLINK_WriteReg(MSP, 0x20004000)
T11ED0 000:980.119 - 0.005ms returns 0
T11ED0 000:980.123 JLINK_WriteReg(PSP, 0x20004000)
T11ED0 000:980.127 - 0.005ms returns 0
T11ED0 000:980.132 JLINK_WriteReg(CFBP, 0x00000000)
T11ED0 000:980.135 - 0.005ms returns 0
T11ED0 000:980.140 JLINK_SetBPEx(Addr = 0x20000000, Type = 0xFFFFFFF2)
T11ED0 000:980.144 - 0.006ms returns 0x00000009
T11ED0 000:980.149 JLINK_Go()
T11ED0 000:980.158   CPU_ReadMem(4 bytes @ 0xE0001000)
T11ED0 000:986.787 - 6.683ms
T11ED0 000:986.904 JLINK_IsHalted()
T11ED0 000:987.568 - 0.694ms returns FALSE
T11ED0 000:987.635 JLINK_HasError()
T11ED0 000:989.724 JLINK_IsHalted()
T11ED0 000:990.456 - 0.737ms returns FALSE
T11ED0 000:990.515 JLINK_HasError()
T11ED0 000:991.748 JLINK_IsHalted()
T11ED0 000:992.488 - 0.743ms returns FALSE
T11ED0 000:992.511 JLINK_HasError()
T11ED0 000:993.778 JLINK_IsHalted()
T11ED0 000:994.527 - 0.770ms returns FALSE
T11ED0 000:994.577 JLINK_HasError()
T11ED0 000:995.651 JLINK_IsHalted()
T11ED0 000:996.483 - 0.846ms returns FALSE
T11ED0 000:996.528 JLINK_HasError()
T11ED0 000:998.062 JLINK_IsHalted()
T11ED0 000:998.876 - 0.824ms returns FALSE
T11ED0 000:998.919 JLINK_HasError()
T11ED0 001:000.157 JLINK_IsHalted()
T11ED0 001:000.975 - 0.834ms returns FALSE
T11ED0 001:001.048 JLINK_HasError()
T11ED0 001:002.279 JLINK_IsHalted()
T11ED0 001:003.103 - 0.842ms returns FALSE
T11ED0 001:003.158 JLINK_HasError()
T11ED0 001:004.618 JLINK_IsHalted()
T11ED0 001:005.547 - 0.939ms returns FALSE
T11ED0 001:005.622 JLINK_HasError()
T11ED0 001:007.215 JLINK_IsHalted()
T11ED0 001:008.040 - 0.843ms returns FALSE
T11ED0 001:008.090 JLINK_HasError()
T11ED0 001:009.687 JLINK_IsHalted()
T11ED0 001:010.374 - 0.696ms returns FALSE
T11ED0 001:010.429 JLINK_HasError()
T11ED0 001:011.529 JLINK_IsHalted()
T11ED0 001:012.239 - 0.724ms returns FALSE
T11ED0 001:012.342 JLINK_HasError()
T11ED0 001:013.390 JLINK_IsHalted()
T11ED0 001:014.072 - 0.695ms returns FALSE
T11ED0 001:014.161 JLINK_HasError()
T11ED0 001:015.359 JLINK_IsHalted()
T11ED0 001:016.162 - 0.819ms returns FALSE
T11ED0 001:016.231 JLINK_HasError()
T11ED0 001:017.818 JLINK_IsHalted()
T11ED0 001:018.656 - 0.850ms returns FALSE
T11ED0 001:018.725 JLINK_HasError()
T11ED0 001:021.346 JLINK_IsHalted()
T11ED0 001:069.091 - 47.772ms returns FALSE
T11ED0 001:069.237 JLINK_HasError()
T11ED0 001:071.806 JLINK_IsHalted()
T11ED0 001:078.568   CPU_ReadMem(2 bytes @ 0x20000000)
T11ED0 001:079.241 - 7.452ms returns TRUE
T11ED0 001:079.336 JLINK_ReadReg(R15 (PC))
T11ED0 001:079.348 - 0.015ms returns 0x20000000
T11ED0 001:079.356 JLINK_ClrBPEx(BPHandle = 0x00000009)
T11ED0 001:079.364 - 0.010ms returns 0x00
T11ED0 001:079.371 JLINK_ReadReg(R0)
T11ED0 001:079.378 - 0.009ms returns 0x00000000
T11ED0 001:079.946 JLINK_HasError()
T11ED0 001:079.968 JLINK_WriteReg(R0, 0x00004000)
T11ED0 001:079.981 - 0.015ms returns 0
T11ED0 001:079.988 JLINK_WriteReg(R1, 0x00001000)
T11ED0 001:079.995 - 0.010ms returns 0
T11ED0 001:080.002 JLINK_WriteReg(R2, 0x000000FF)
T11ED0 001:080.008 - 0.008ms returns 0
T11ED0 001:080.014 JLINK_WriteReg(R3, 0x00000000)
T11ED0 001:080.020 - 0.008ms returns 0
T11ED0 001:080.026 JLINK_WriteReg(R4, 0x00000000)
T11ED0 001:080.031 - 0.008ms returns 0
T11ED0 001:080.038 JLINK_WriteReg(R5, 0x00000000)
T11ED0 001:080.044 - 0.008ms returns 0
T11ED0 001:080.050 JLINK_WriteReg(R6, 0x00000000)
T11ED0 001:080.055 - 0.008ms returns 0
T11ED0 001:080.062 JLINK_WriteReg(R7, 0x00000000)
T11ED0 001:080.068 - 0.008ms returns 0
T11ED0 001:080.074 JLINK_WriteReg(R8, 0x00000000)
T11ED0 001:080.079 - 0.008ms returns 0
T11ED0 001:080.086 JLINK_WriteReg(R9, 0x200005B4)
T11ED0 001:080.096 - 0.013ms returns 0
T11ED0 001:080.105 JLINK_WriteReg(R10, 0x00000000)
T11ED0 001:080.111 - 0.008ms returns 0
T11ED0 001:080.118 JLINK_WriteReg(R11, 0x00000000)
T11ED0 001:080.123 - 0.008ms returns 0
T11ED0 001:080.130 JLINK_WriteReg(R12, 0x00000000)
T11ED0 001:080.135 - 0.008ms returns 0
T11ED0 001:080.141 JLINK_WriteReg(R13 (SP), 0x20004000)
T11ED0 001:080.148 - 0.008ms returns 0
T11ED0 001:080.154 JLINK_WriteReg(R14, 0x20000001)
T11ED0 001:080.160 - 0.008ms returns 0
T11ED0 001:080.166 JLINK_WriteReg(R15 (PC), 0x20000288)
T11ED0 001:080.172 - 0.008ms returns 0
T11ED0 001:080.178 JLINK_WriteReg(XPSR, 0x01000000)
T11ED0 001:080.184 - 0.008ms returns 0
T11ED0 001:080.190 JLINK_WriteReg(MSP, 0x20004000)
T11ED0 001:080.196 - 0.008ms returns 0
T11ED0 001:080.202 JLINK_WriteReg(PSP, 0x20004000)
T11ED0 001:080.207 - 0.008ms returns 0
T11ED0 001:080.214 JLINK_WriteReg(CFBP, 0x00000000)
T11ED0 001:080.219 - 0.008ms returns 0
T11ED0 001:080.227 JLINK_SetBPEx(Addr = 0x20000000, Type = 0xFFFFFFF2)
T11ED0 001:080.233 - 0.009ms returns 0x0000000A
T11ED0 001:080.240 JLINK_Go()
T11ED0 001:080.254   CPU_ReadMem(4 bytes @ 0xE0001000)
T11ED0 001:087.086 - 6.858ms
T11ED0 001:087.129 JLINK_IsHalted()
T11ED0 001:093.742   CPU_ReadMem(2 bytes @ 0x20000000)
T11ED0 001:094.594 - 7.478ms returns TRUE
T11ED0 001:094.667 JLINK_ReadReg(R15 (PC))
T11ED0 001:094.677 - 0.012ms returns 0x20000000
T11ED0 001:094.683 JLINK_ClrBPEx(BPHandle = 0x0000000A)
T11ED0 001:094.689 - 0.007ms returns 0x00
T11ED0 001:094.695 JLINK_ReadReg(R0)
T11ED0 001:094.699 - 0.007ms returns 0x00000001
T11ED0 001:094.706 JLINK_HasError()
T11ED0 001:094.716 JLINK_WriteReg(R0, 0x00004000)
T11ED0 001:094.722 - 0.007ms returns 0
T11ED0 001:094.727 JLINK_WriteReg(R1, 0x00001000)
T11ED0 001:094.732 - 0.006ms returns 0
T11ED0 001:094.738 JLINK_WriteReg(R2, 0x000000FF)
T11ED0 001:094.742 - 0.006ms returns 0
T11ED0 001:094.748 JLINK_WriteReg(R3, 0x00000000)
T11ED0 001:094.752 - 0.006ms returns 0
T11ED0 001:094.758 JLINK_WriteReg(R4, 0x00000000)
T11ED0 001:094.763 - 0.007ms returns 0
T11ED0 001:094.768 JLINK_WriteReg(R5, 0x00000000)
T11ED0 001:094.773 - 0.006ms returns 0
T11ED0 001:094.778 JLINK_WriteReg(R6, 0x00000000)
T11ED0 001:094.835 - 0.061ms returns 0
T11ED0 001:094.843 JLINK_WriteReg(R7, 0x00000000)
T11ED0 001:094.848 - 0.007ms returns 0
T11ED0 001:094.853 JLINK_WriteReg(R8, 0x00000000)
T11ED0 001:094.858 - 0.006ms returns 0
T11ED0 001:094.863 JLINK_WriteReg(R9, 0x200005B4)
T11ED0 001:094.868 - 0.006ms returns 0
T11ED0 001:094.873 JLINK_WriteReg(R10, 0x00000000)
T11ED0 001:094.878 - 0.006ms returns 0
T11ED0 001:094.883 JLINK_WriteReg(R11, 0x00000000)
T11ED0 001:094.887 - 0.006ms returns 0
T11ED0 001:094.893 JLINK_WriteReg(R12, 0x00000000)
T11ED0 001:094.897 - 0.006ms returns 0
T11ED0 001:094.902 JLINK_WriteReg(R13 (SP), 0x20004000)
T11ED0 001:094.907 - 0.007ms returns 0
T11ED0 001:094.913 JLINK_WriteReg(R14, 0x20000001)
T11ED0 001:094.917 - 0.006ms returns 0
T11ED0 001:094.922 JLINK_WriteReg(R15 (PC), 0x200000D4)
T11ED0 001:094.927 - 0.006ms returns 0
T11ED0 001:094.932 JLINK_WriteReg(XPSR, 0x01000000)
T11ED0 001:094.937 - 0.006ms returns 0
T11ED0 001:094.942 JLINK_WriteReg(MSP, 0x20004000)
T11ED0 001:094.947 - 0.006ms returns 0
T11ED0 001:094.952 JLINK_WriteReg(PSP, 0x20004000)
T11ED0 001:094.956 - 0.006ms returns 0
T11ED0 001:094.962 JLINK_WriteReg(CFBP, 0x00000000)
T11ED0 001:094.966 - 0.006ms returns 0
T11ED0 001:094.972 JLINK_SetBPEx(Addr = 0x20000000, Type = 0xFFFFFFF2)
T11ED0 001:094.977 - 0.007ms returns 0x0000000B
T11ED0 001:094.983 JLINK_Go()
T11ED0 001:094.994   CPU_ReadMem(4 bytes @ 0xE0001000)
T11ED0 001:102.073 - 7.103ms
T11ED0 001:102.133 JLINK_IsHalted()
T11ED0 001:102.906 - 0.777ms returns FALSE
T11ED0 001:102.940 JLINK_HasError()
T11ED0 001:105.609 JLINK_IsHalted()
T11ED0 001:106.285 - 0.682ms returns FALSE
T11ED0 001:106.322 JLINK_HasError()
T11ED0 001:107.704 JLINK_IsHalted()
T11ED0 001:108.534 - 0.861ms returns FALSE
T11ED0 001:108.614 JLINK_HasError()
T11ED0 001:110.330 JLINK_IsHalted()
T11ED0 001:111.102 - 0.796ms returns FALSE
T11ED0 001:111.173 JLINK_HasError()
T11ED0 001:112.274 JLINK_IsHalted()
T11ED0 001:112.977 - 0.717ms returns FALSE
T11ED0 001:113.038 JLINK_HasError()
T11ED0 001:114.379 JLINK_IsHalted()
T11ED0 001:115.064 - 0.689ms returns FALSE
T11ED0 001:115.100 JLINK_HasError()
T11ED0 001:116.180 JLINK_IsHalted()
T11ED0 001:116.962 - 0.786ms returns FALSE
T11ED0 001:116.991 JLINK_HasError()
T11ED0 001:118.182 JLINK_IsHalted()
T11ED0 001:119.037 - 0.866ms returns FALSE
T11ED0 001:119.105 JLINK_HasError()
T11ED0 001:120.417 JLINK_IsHalted()
T11ED0 001:121.287 - 0.885ms returns FALSE
T11ED0 001:121.373 JLINK_HasError()
T11ED0 001:122.627 JLINK_IsHalted()
T11ED0 001:123.435 - 0.811ms returns FALSE
T11ED0 001:123.465 JLINK_HasError()
T11ED0 001:124.962 JLINK_IsHalted()
T11ED0 001:125.777 - 0.822ms returns FALSE
T11ED0 001:125.820 JLINK_HasError()
T11ED0 001:128.763 JLINK_IsHalted()
T11ED0 001:129.676 - 0.931ms returns FALSE
T11ED0 001:129.734 JLINK_HasError()
T11ED0 001:131.033 JLINK_IsHalted()
T11ED0 001:131.857 - 0.837ms returns FALSE
T11ED0 001:131.933 JLINK_HasError()
T11ED0 001:133.265 JLINK_IsHalted()
T11ED0 001:134.064 - 0.803ms returns FALSE
T11ED0 001:134.097 JLINK_HasError()
T11ED0 001:135.488 JLINK_IsHalted()
T11ED0 001:136.344 - 0.859ms returns FALSE
T11ED0 001:136.414 JLINK_HasError()
T11ED0 001:137.589 JLINK_IsHalted()
T11ED0 001:138.420 - 0.842ms returns FALSE
T11ED0 001:138.478 JLINK_HasError()
T11ED0 001:139.981 JLINK_IsHalted()
T11ED0 001:140.731 - 0.756ms returns FALSE
T11ED0 001:140.778 JLINK_HasError()
T11ED0 001:142.077 JLINK_IsHalted()
T11ED0 001:196.700   CPU_ReadMem(2 bytes @ 0x20000000)
T11ED0 001:197.463 - 55.428ms returns TRUE
T11ED0 001:197.604 JLINK_ReadReg(R15 (PC))
T11ED0 001:197.619 - 0.018ms returns 0x20000000
T11ED0 001:197.635 JLINK_ClrBPEx(BPHandle = 0x0000000B)
T11ED0 001:197.643 - 0.011ms returns 0x00
T11ED0 001:198.094 JLINK_ReadReg(R0)
T11ED0 001:198.120 - 0.030ms returns 0x00000000
T11ED0 001:198.809 JLINK_HasError()
T11ED0 001:198.828 JLINK_WriteReg(R0, 0x00005000)
T11ED0 001:198.840 - 0.015ms returns 0
T11ED0 001:198.849 JLINK_WriteReg(R1, 0x00001000)
T11ED0 001:198.863 - 0.021ms returns 0
T11ED0 001:198.875 JLINK_WriteReg(R2, 0x000000FF)
T11ED0 001:198.882 - 0.010ms returns 0
T11ED0 001:198.891 JLINK_WriteReg(R3, 0x00000000)
T11ED0 001:198.898 - 0.010ms returns 0
T11ED0 001:198.906 JLINK_WriteReg(R4, 0x00000000)
T11ED0 001:198.913 - 0.010ms returns 0
T11ED0 001:198.921 JLINK_WriteReg(R5, 0x00000000)
T11ED0 001:198.928 - 0.010ms returns 0
T11ED0 001:198.936 JLINK_WriteReg(R6, 0x00000000)
T11ED0 001:198.943 - 0.010ms returns 0
T11ED0 001:198.951 JLINK_WriteReg(R7, 0x00000000)
T11ED0 001:198.958 - 0.010ms returns 0
T11ED0 001:198.966 JLINK_WriteReg(R8, 0x00000000)
T11ED0 001:198.973 - 0.010ms returns 0
T11ED0 001:198.981 JLINK_WriteReg(R9, 0x200005B4)
T11ED0 001:198.988 - 0.010ms returns 0
T11ED0 001:198.998 JLINK_WriteReg(R10, 0x00000000)
T11ED0 001:199.005 - 0.012ms returns 0
T11ED0 001:199.013 JLINK_WriteReg(R11, 0x00000000)
T11ED0 001:199.022 - 0.012ms returns 0
T11ED0 001:199.031 JLINK_WriteReg(R12, 0x00000000)
T11ED0 001:199.038 - 0.010ms returns 0
T11ED0 001:199.046 JLINK_WriteReg(R13 (SP), 0x20004000)
T11ED0 001:199.054 - 0.011ms returns 0
T11ED0 001:199.062 JLINK_WriteReg(R14, 0x20000001)
T11ED0 001:199.069 - 0.010ms returns 0
T11ED0 001:199.077 JLINK_WriteReg(R15 (PC), 0x20000288)
T11ED0 001:199.084 - 0.015ms returns 0
T11ED0 001:199.097 JLINK_WriteReg(XPSR, 0x01000000)
T11ED0 001:199.104 - 0.010ms returns 0
T11ED0 001:199.113 JLINK_WriteReg(MSP, 0x20004000)
T11ED0 001:199.119 - 0.010ms returns 0
T11ED0 001:199.128 JLINK_WriteReg(PSP, 0x20004000)
T11ED0 001:199.135 - 0.010ms returns 0
T11ED0 001:199.143 JLINK_WriteReg(CFBP, 0x00000000)
T11ED0 001:199.150 - 0.010ms returns 0
T11ED0 001:199.158 JLINK_SetBPEx(Addr = 0x20000000, Type = 0xFFFFFFF2)
T11ED0 001:199.167 - 0.012ms returns 0x0000000C
T11ED0 001:199.175 JLINK_Go()
T11ED0 001:199.193   CPU_ReadMem(4 bytes @ 0xE0001000)
T11ED0 001:205.919 - 6.761ms
